T3CA4 000:008.138   SEGGER J-Link V7.88j Log File
T3CA4 000:008.293   DLL Compiled: Jun 28 2023 13:33:44
T3CA4 000:008.300   Logging started @ 2025-04-03 03:43
T3CA4 000:008.306 - 8.310ms
T3CA4 000:008.322 JLINK_SetWarnOutHandler(...)
T3CA4 000:008.330 - 0.011ms
T3CA4 000:008.338 JLINK_OpenEx(...)
T3CA4 000:010.342   Firmware: J-Link V9 compiled Dec 13 2022 11:14:50
T3CA4 000:010.627   Firmware: J-Link V9 compiled Dec 13 2022 11:14:50
T3CA4 000:010.908   Decompressing FW timestamp took 207 us
T3CA4 000:016.471   Hardware: V9.70
T3CA4 000:016.496   S/N: 69730320
T3CA4 000:016.506   OEM: SEGGER
T3CA4 000:016.515   Feature(s): RDI, GDB, FlashDL, FlashBP, JFlash
T3CA4 000:016.995   Bootloader: (Could not read)
T3CA4 000:017.707   TELNET listener socket opened on port 19021
T3CA4 000:017.893   WEBSRV WEBSRV_Init(): Starting webserver thread(s)
T3CA4 000:018.080   WEBSRV Webserver running on local port 19080
T3CA4 000:018.186   Looking for J-Link GUI Server exe at: D:\InstallFiles\Keil_v5\ARM\Segger\JLinkGUIServer.exe
T3CA4 000:018.310   Looking for J-Link GUI Server exe at: C:\Program Files\SEGGER\JLink\JLinkGUIServer.exe
T3CA4 000:018.357   Forking J-Link GUI Server: C:\Program Files\SEGGER\JLink\JLinkGUIServer.exe
T3CA4 000:057.301   J-Link GUI Server info: "J-Link GUI server V7.88j "
T3CA4 000:063.842 - 55.525ms returns "O.K."
T3CA4 000:063.893 JLINK_GetEmuCaps()
T3CA4 000:063.901 - 0.010ms returns 0xB9FF7BBF
T3CA4 000:063.912 JLINK_TIF_GetAvailable(...)
T3CA4 000:064.075 - 0.172ms
T3CA4 000:064.093 JLINK_SetErrorOutHandler(...)
T3CA4 000:064.098 - 0.009ms
T3CA4 000:064.137 JLINK_ExecCommand("ProjectFile = "C:\Users\Laptop\Desktop\xianqiantuo.QT_ECU_VOL\Prj_GD32\Project\JLinkSettings.ini"", ...). 
T3CA4 000:083.319   Ref file found at: D:\InstallFiles\Keil_v5\ARM\Segger\JLinkDevices.ref
T3CA4 000:083.442   REF file references invalid XML file: C:\Program Files\SEGGER\JLink\JLinkDevices.xml
T3CA4 000:083.669 - 19.538ms returns 0x00
T3CA4 000:086.751 JLINK_ExecCommand("Device = GD32F303VC", ...). 
T3CA4 000:090.877   Device "GD32F303VC" selected.
T3CA4 000:091.230 - 4.460ms returns 0x00
T3CA4 000:091.255 JLINK_ExecCommand("DisableConnectionTimeout", ...). 
T3CA4 000:091.269 - 0.006ms returns 0x01
T3CA4 000:091.279 JLINK_GetHardwareVersion()
T3CA4 000:091.285 - 0.009ms returns 97000
T3CA4 000:091.338 JLINK_GetDLLVersion()
T3CA4 000:091.349 - 0.014ms returns 78810
T3CA4 000:091.357 JLINK_GetOEMString(...)
T3CA4 000:091.366 JLINK_GetFirmwareString(...)
T3CA4 000:091.372 - 0.009ms
T3CA4 000:105.158 JLINK_GetDLLVersion()
T3CA4 000:105.193 - 0.038ms returns 78810
T3CA4 000:105.202 JLINK_GetCompileDateTime()
T3CA4 000:105.208 - 0.008ms
T3CA4 000:110.075 JLINK_GetFirmwareString(...)
T3CA4 000:110.103 - 0.030ms
T3CA4 000:117.945 JLINK_GetHardwareVersion()
T3CA4 000:117.972 - 0.030ms returns 97000
T3CA4 000:122.730 JLINK_GetSN()
T3CA4 000:122.759 - 0.033ms returns 69730320
T3CA4 000:128.448 JLINK_GetOEMString(...)
T3CA4 000:137.567 JLINK_TIF_Select(JLINKARM_TIF_SWD)
T3CA4 000:138.092 - 0.535ms returns 0x00
T3CA4 000:138.107 JLINK_HasError()
T3CA4 000:138.129 JLINK_SetSpeed(2000)
T3CA4 000:138.199 - 0.075ms
T3CA4 000:138.209 JLINK_GetId()
T3CA4 000:144.410   Found SW-DP with ID 0x2BA01477
T3CA4 000:146.285   Old FW that does not support reading DPIDR via DAP jobs
T3CA4 000:151.788   DPv0 detected
T3CA4 000:157.107   CoreSight SoC-400 or earlier
T3CA4 000:163.074   Scanning AP map to find all available APs
T3CA4 000:169.763   AP[1]: Stopped AP scan as end of AP map has been reached
T3CA4 000:176.636   AP[0]: AHB-AP (IDR: 0x24770011)
T3CA4 000:180.913   Iterating through AP map to find AHB-AP to use
T3CA4 000:186.255   AP[0]: Core found
T3CA4 000:191.722   AP[0]: AHB-AP ROM base: 0xE00FF000
T3CA4 000:196.461   CPUID register: 0x410FC241. Implementer code: 0x41 (ARM)
T3CA4 000:201.353   Found Cortex-M4 r0p1, Little endian.
T3CA4 000:201.741   -- Max. mem block: 0x00010BB0
T3CA4 000:202.148   CPU_ReadMem(4 bytes @ 0xE000EDF0)
T3CA4 000:202.473   CPU_WriteMem(4 bytes @ 0xE000EDF0)
T3CA4 000:202.886   CPU_ReadMem(4 bytes @ 0xE0002000)
T3CA4 000:208.418   FPUnit: 6 code (BP) slots and 2 literal slots
T3CA4 000:208.463   CPU_ReadMem(4 bytes @ 0xE000EDFC)
T3CA4 000:208.838   CPU_WriteMem(4 bytes @ 0xE000EDFC)
T3CA4 000:209.398   CPU_ReadMem(4 bytes @ 0xE0001000)
T3CA4 000:209.749   CPU_WriteMem(4 bytes @ 0xE0001000)
T3CA4 000:210.078   CPU_ReadMem(4 bytes @ 0xE000ED88)
T3CA4 000:210.402   CPU_WriteMem(4 bytes @ 0xE000ED88)
T3CA4 000:210.721   CPU_ReadMem(4 bytes @ 0xE000ED88)
T3CA4 000:211.040   CPU_WriteMem(4 bytes @ 0xE000ED88)
T3CA4 000:215.675   CoreSight components:
T3CA4 000:220.766   ROMTbl[0] @ E00FF000
T3CA4 000:220.799   CPU_ReadMem(64 bytes @ 0xE00FF000)
T3CA4 000:221.636   CPU_ReadMem(32 bytes @ 0xE000EFE0)
T3CA4 000:229.223   [0][0]: E000E000 CID B105E00D PID 000BB00C SCS-M7
T3CA4 000:229.256   CPU_ReadMem(32 bytes @ 0xE0001FE0)
T3CA4 000:235.112   [0][1]: E0001000 CID B105E00D PID 003BB002 DWT
T3CA4 000:235.147   CPU_ReadMem(32 bytes @ 0xE0002FE0)
T3CA4 000:242.808   [0][2]: E0002000 CID B105E00D PID 002BB003 FPB
T3CA4 000:242.839   CPU_ReadMem(32 bytes @ 0xE0000FE0)
T3CA4 000:248.107   [0][3]: E0000000 CID B105E00D PID 003BB001 ITM
T3CA4 000:248.143   CPU_ReadMem(32 bytes @ 0xE0040FE0)
T3CA4 000:255.597   [0][4]: E0040000 CID B105900D PID 000BB9A1 TPIU
T3CA4 000:255.645   CPU_ReadMem(32 bytes @ 0xE0041FE0)
T3CA4 000:263.817   [0][5]: E0041000 CID 00000000 PID 00000000 ???
T3CA4 000:264.099 - 125.901ms returns 0x2BA01477
T3CA4 000:264.125 JLINK_GetDLLVersion()
T3CA4 000:264.132 - 0.009ms returns 78810
T3CA4 000:264.141 JLINK_CORE_GetFound()
T3CA4 000:264.148 - 0.009ms returns 0xE0000FF
T3CA4 000:264.192 JLINK_GetDebugInfo(0x100 = JLINKARM_ROM_TABLE_ADDR_INDEX)
T3CA4 000:264.203   Value=0xE00FF000
T3CA4 000:264.213 - 0.024ms returns 0
T3CA4 000:273.913 JLINK_GetDebugInfo(0x100 = JLINKARM_ROM_TABLE_ADDR_INDEX)
T3CA4 000:273.940   Value=0xE00FF000
T3CA4 000:273.949 - 0.039ms returns 0
T3CA4 000:273.959 JLINK_GetDebugInfo(0x101 = JLINKARM_DEBUG_INFO_ETM_ADDR_INDEX)
T3CA4 000:273.967   Value=0x00000000
T3CA4 000:273.976 - 0.021ms returns 0
T3CA4 000:273.986 JLINK_ReadMemEx(0xE0041FF0, 0x10 Bytes, Flags = 0x02000004)
T3CA4 000:274.041   CPU_ReadMem(16 bytes @ 0xE0041FF0)
T3CA4 000:274.554   Data:  00 00 00 00 00 00 00 00 00 00 00 00 00 00 00 00
T3CA4 000:274.573 - 0.590ms returns 16 (0x10)
T3CA4 000:274.586 JLINK_GetDebugInfo(0x102 = JLINKARM_DEBUG_INFO_MTB_ADDR_INDEX)
T3CA4 000:274.593   Value=0x00000000
T3CA4 000:274.601 - 0.018ms returns 0
T3CA4 000:274.609 JLINK_GetDebugInfo(0x103 = JLINKARM_DEBUG_INFO_TPIU_ADDR_INDEX)
T3CA4 000:274.615   Value=0xE0040000
T3CA4 000:274.623 - 0.017ms returns 0
T3CA4 000:274.630 JLINK_GetDebugInfo(0x104 = JLINKARM_DEBUG_INFO_ITM_ADDR_INDEX)
T3CA4 000:274.636   Value=0xE0000000
T3CA4 000:274.644 - 0.017ms returns 0
T3CA4 000:274.653 JLINK_GetDebugInfo(0x105 = JLINKARM_DEBUG_INFO_DWT_ADDR_INDEX)
T3CA4 000:274.660   Value=0xE0001000
T3CA4 000:274.669 - 0.018ms returns 0
T3CA4 000:274.676 JLINK_GetDebugInfo(0x106 = JLINKARM_DEBUG_INFO_FPB_ADDR_INDEX)
T3CA4 000:274.683   Value=0xE0002000
T3CA4 000:274.691 - 0.017ms returns 0
T3CA4 000:274.698 JLINK_GetDebugInfo(0x107 = JLINKARM_DEBUG_INFO_NVIC_ADDR_INDEX)
T3CA4 000:274.705   Value=0xE000E000
T3CA4 000:274.714 - 0.018ms returns 0
T3CA4 000:274.720 JLINK_GetDebugInfo(0x10C = JLINKARM_DEBUG_INFO_DBG_ADDR_INDEX)
T3CA4 000:274.727   Value=0xE000EDF0
T3CA4 000:274.735 - 0.017ms returns 0
T3CA4 000:274.742 JLINK_GetDebugInfo(0x01 = Unknown)
T3CA4 000:274.760   Value=0x00000001
T3CA4 000:274.768 - 0.029ms returns 0
T3CA4 000:274.776 JLINK_ReadMemU32(0xE000ED00, 0x1 Items)
T3CA4 000:274.794   CPU_ReadMem(4 bytes @ 0xE000ED00)
T3CA4 000:275.150   Data:  41 C2 0F 41
T3CA4 000:275.166   Debug reg: CPUID
T3CA4 000:275.175 - 0.402ms returns 1 (0x1)
T3CA4 000:275.186 JLINK_GetDebugInfo(0x10F = JLINKARM_DEBUG_INFO_HAS_CORTEX_M_SECURITY_EXT_INDEX)
T3CA4 000:275.193   Value=0x00000000
T3CA4 000:275.202 - 0.018ms returns 0
T3CA4 000:275.209 JLINK_HasError()
T3CA4 000:275.222 JLINK_SetResetType(JLINKARM_CM3_RESET_TYPE_NORMAL)
T3CA4 000:275.233 - 0.013ms returns JLINKARM_CM3_RESET_TYPE_NORMAL
T3CA4 000:275.241 JLINK_Reset()
T3CA4 000:275.276   CPU is running
T3CA4 000:275.289   CPU_WriteMem(4 bytes @ 0xE000EDF0)
T3CA4 000:275.641   CPU is running
T3CA4 000:275.670   CPU_WriteMem(4 bytes @ 0xE000EDFC)
T3CA4 000:283.793   Reset: Halt core after reset via DEMCR.VC_CORERESET.
T3CA4 000:294.907   Reset: Reset device via AIRCR.SYSRESETREQ.
T3CA4 000:294.935   CPU is running
T3CA4 000:294.950   CPU_WriteMem(4 bytes @ 0xE000ED0C)
T3CA4 000:348.131   CPU_ReadMem(4 bytes @ 0xE000EDF0)
T3CA4 000:348.442   CPU_ReadMem(4 bytes @ 0xE000EDF0)
T3CA4 000:352.181   CPU_WriteMem(4 bytes @ 0xE000EDFC)
T3CA4 000:358.439   CPU_ReadMem(4 bytes @ 0xE000EDF0)
T3CA4 000:362.135   CPU_WriteMem(4 bytes @ 0xE0002000)
T3CA4 000:362.464   CPU_ReadMem(4 bytes @ 0xE000EDFC)
T3CA4 000:362.779   CPU_ReadMem(4 bytes @ 0xE0001000)
T3CA4 000:363.100 - 87.863ms
T3CA4 000:363.114 JLINK_Halt()
T3CA4 000:363.121 - 0.009ms returns 0x00
T3CA4 000:363.129 JLINK_ReadMemU32(0xE000EDF0, 0x1 Items)
T3CA4 000:363.141   CPU_ReadMem(4 bytes @ 0xE000EDF0)
T3CA4 000:363.443   Data:  03 00 03 00
T3CA4 000:363.455   Debug reg: DHCSR
T3CA4 000:363.464 - 0.337ms returns 1 (0x1)
T3CA4 000:363.518 JLINK_WriteU32_64(0xE000EDF0, 0xA05F0003)
T3CA4 000:363.532   Debug reg: DHCSR
T3CA4 000:363.890   CPU_WriteMem(4 bytes @ 0xE000EDF0)
T3CA4 000:364.224 - 0.712ms returns 0 (0x00000000)
T3CA4 000:364.235 JLINK_WriteU32_64(0xE000EDFC, 0x01000000)
T3CA4 000:364.241   Debug reg: DEMCR
T3CA4 000:364.252   CPU_WriteMem(4 bytes @ 0xE000EDFC)
T3CA4 000:364.591 - 0.360ms returns 0 (0x00000000)
T3CA4 000:380.460 JLINK_GetHWStatus(...)
T3CA4 000:380.620 - 0.166ms returns 0
T3CA4 000:393.619 JLINK_GetNumBPUnits(Type = 0xFFFFFF00)
T3CA4 000:393.638 - 0.022ms returns 0x06
T3CA4 000:393.647 JLINK_GetNumBPUnits(Type = 0xF0)
T3CA4 000:393.653 - 0.010ms returns 0x2000
T3CA4 000:393.661 JLINK_GetNumWPUnits()
T3CA4 000:393.667 - 0.009ms returns 4
T3CA4 000:406.234 JLINK_GetSpeed()
T3CA4 000:406.256 - 0.024ms returns 2000
T3CA4 000:416.600 JLINK_ReadMemU32(0xE000E004, 0x1 Items)
T3CA4 000:416.633   CPU_ReadMem(4 bytes @ 0xE000E004)
T3CA4 000:416.992   Data:  02 00 00 00
T3CA4 000:417.003 - 0.406ms returns 1 (0x1)
T3CA4 000:417.012 JLINK_ReadMemU32(0xE000E004, 0x1 Items)
T3CA4 000:417.021   CPU_ReadMem(4 bytes @ 0xE000E004)
T3CA4 000:417.342   Data:  02 00 00 00
T3CA4 000:417.351 - 0.341ms returns 1 (0x1)
T3CA4 000:417.358 JLINK_WriteMemEx(0xE0001000, 0x0000001C Bytes, Flags = 0x02000004)
T3CA4 000:417.364   Data:  01 00 00 00 00 00 00 00 00 00 00 00 00 00 00 00 ...
T3CA4 000:417.377   CPU_WriteMem(28 bytes @ 0xE0001000)
T3CA4 000:417.861 - 0.509ms returns 0x1C
T3CA4 000:417.876 JLINK_Halt()
T3CA4 000:417.881 - 0.007ms returns 0x00
T3CA4 000:417.887 JLINK_IsHalted()
T3CA4 000:417.892 - 0.008ms returns TRUE
T3CA4 000:420.716 JLINK_WriteMem(0x20000000, 0x13C Bytes, ...)
T3CA4 000:420.731   Data:  00 BE 0A E0 0D 78 2D 06 68 40 08 24 40 00 00 D3 ...
T3CA4 000:421.069   CPU_WriteMem(316 bytes @ 0x20000000)
T3CA4 000:423.763 - 3.060ms returns 0x13C
T3CA4 000:423.810 JLINK_HasError()
T3CA4 000:423.819 JLINK_WriteReg(R0, 0x08000000)
T3CA4 000:423.836 - 0.019ms returns 0
T3CA4 000:423.842 JLINK_WriteReg(R1, 0x00B71B00)
T3CA4 000:423.847 - 0.007ms returns 0
T3CA4 000:423.852 JLINK_WriteReg(R2, 0x00000001)
T3CA4 000:423.857 - 0.007ms returns 0
T3CA4 000:423.863 JLINK_WriteReg(R3, 0x00000000)
T3CA4 000:423.868 - 0.007ms returns 0
T3CA4 000:423.873 JLINK_WriteReg(R4, 0x00000000)
T3CA4 000:423.878 - 0.007ms returns 0
T3CA4 000:423.883 JLINK_WriteReg(R5, 0x00000000)
T3CA4 000:423.888 - 0.007ms returns 0
T3CA4 000:423.894 JLINK_WriteReg(R6, 0x00000000)
T3CA4 000:423.898 - 0.007ms returns 0
T3CA4 000:423.904 JLINK_WriteReg(R7, 0x00000000)
T3CA4 000:423.909 - 0.007ms returns 0
T3CA4 000:423.914 JLINK_WriteReg(R8, 0x00000000)
T3CA4 000:423.931 - 0.018ms returns 0
T3CA4 000:423.936 JLINK_WriteReg(R9, 0x20000134)
T3CA4 000:423.945 - 0.012ms returns 0
T3CA4 000:423.952 JLINK_WriteReg(R10, 0x00000000)
T3CA4 000:423.957 - 0.007ms returns 0
T3CA4 000:423.962 JLINK_WriteReg(R11, 0x00000000)
T3CA4 000:423.967 - 0.007ms returns 0
T3CA4 000:423.973 JLINK_WriteReg(R12, 0x00000000)
T3CA4 000:423.978 - 0.007ms returns 0
T3CA4 000:423.983 JLINK_WriteReg(R13 (SP), 0x20001000)
T3CA4 000:423.989 - 0.008ms returns 0
T3CA4 000:423.994 JLINK_WriteReg(R14, 0x20000001)
T3CA4 000:423.999 - 0.007ms returns 0
T3CA4 000:424.004 JLINK_WriteReg(R15 (PC), 0x20000038)
T3CA4 000:424.014 - 0.012ms returns 0
T3CA4 000:424.020 JLINK_WriteReg(XPSR, 0x01000000)
T3CA4 000:424.025 - 0.007ms returns 0
T3CA4 000:424.030 JLINK_WriteReg(MSP, 0x20001000)
T3CA4 000:424.035 - 0.007ms returns 0
T3CA4 000:424.040 JLINK_WriteReg(PSP, 0x20001000)
T3CA4 000:424.045 - 0.007ms returns 0
T3CA4 000:424.051 JLINK_WriteReg(CFBP, 0x00000000)
T3CA4 000:424.055 - 0.007ms returns 0
T3CA4 000:424.061 JLINK_SetBPEx(Addr = 0x20000000, Type = 0xFFFFFFF2)
T3CA4 000:424.072   CPU_ReadMem(2 bytes @ 0x20000000)
T3CA4 000:424.419 - 0.362ms returns 0x00000001
T3CA4 000:424.428 JLINK_Go()
T3CA4 000:424.436   CPU_WriteMem(2 bytes @ 0x20000000)
T3CA4 000:424.757   CPU_ReadMem(4 bytes @ 0xE0001000)
T3CA4 000:425.073   CPU_WriteMem(4 bytes @ 0xE0002008)
T3CA4 000:425.082   CPU_WriteMem(4 bytes @ 0xE000200C)
T3CA4 000:425.089   CPU_WriteMem(4 bytes @ 0xE0002010)
T3CA4 000:425.096   CPU_WriteMem(4 bytes @ 0xE0002014)
T3CA4 000:425.103   CPU_WriteMem(4 bytes @ 0xE0002018)
T3CA4 000:425.109   CPU_WriteMem(4 bytes @ 0xE000201C)
T3CA4 000:426.636   CPU_WriteMem(4 bytes @ 0xE0001004)
T3CA4 000:430.149 - 5.732ms
T3CA4 000:430.168 JLINK_IsHalted()
T3CA4 000:433.592   CPU_ReadMem(2 bytes @ 0x20000000)
T3CA4 000:433.959 - 3.809ms returns TRUE
T3CA4 000:433.994 JLINK_ReadReg(R15 (PC))
T3CA4 000:434.020 - 0.033ms returns 0x20000000
T3CA4 000:434.040 JLINK_ClrBPEx(BPHandle = 0x00000001)
T3CA4 000:434.062 - 0.030ms returns 0x00
T3CA4 000:434.082 JLINK_ReadReg(R0)
T3CA4 000:434.096 - 0.016ms returns 0x00000000
T3CA4 000:434.362 JLINK_HasError()
T3CA4 000:434.371 JLINK_WriteReg(R0, 0x08000000)
T3CA4 000:434.378 - 0.008ms returns 0
T3CA4 000:434.383 JLINK_WriteReg(R1, 0x00000800)
T3CA4 000:434.388 - 0.007ms returns 0
T3CA4 000:434.393 JLINK_WriteReg(R2, 0x000000FF)
T3CA4 000:434.398 - 0.006ms returns 0
T3CA4 000:434.403 JLINK_WriteReg(R3, 0x00000000)
T3CA4 000:434.408 - 0.006ms returns 0
T3CA4 000:434.413 JLINK_WriteReg(R4, 0x00000000)
T3CA4 000:434.417 - 0.006ms returns 0
T3CA4 000:434.422 JLINK_WriteReg(R5, 0x00000000)
T3CA4 000:434.427 - 0.006ms returns 0
T3CA4 000:434.432 JLINK_WriteReg(R6, 0x00000000)
T3CA4 000:434.436 - 0.006ms returns 0
T3CA4 000:434.441 JLINK_WriteReg(R7, 0x00000000)
T3CA4 000:434.446 - 0.006ms returns 0
T3CA4 000:434.451 JLINK_WriteReg(R8, 0x00000000)
T3CA4 000:434.455 - 0.006ms returns 0
T3CA4 000:434.460 JLINK_WriteReg(R9, 0x20000134)
T3CA4 000:434.465 - 0.006ms returns 0
T3CA4 000:434.470 JLINK_WriteReg(R10, 0x00000000)
T3CA4 000:434.475 - 0.006ms returns 0
T3CA4 000:434.480 JLINK_WriteReg(R11, 0x00000000)
T3CA4 000:434.484 - 0.006ms returns 0
T3CA4 000:434.489 JLINK_WriteReg(R12, 0x00000000)
T3CA4 000:434.494 - 0.006ms returns 0
T3CA4 000:434.499 JLINK_WriteReg(R13 (SP), 0x20001000)
T3CA4 000:434.504 - 0.007ms returns 0
T3CA4 000:434.509 JLINK_WriteReg(R14, 0x20000001)
T3CA4 000:434.514 - 0.006ms returns 0
T3CA4 000:434.519 JLINK_WriteReg(R15 (PC), 0x20000020)
T3CA4 000:434.523 - 0.006ms returns 0
T3CA4 000:434.528 JLINK_WriteReg(XPSR, 0x01000000)
T3CA4 000:434.533 - 0.006ms returns 0
T3CA4 000:434.538 JLINK_WriteReg(MSP, 0x20001000)
T3CA4 000:434.542 - 0.006ms returns 0
T3CA4 000:434.547 JLINK_WriteReg(PSP, 0x20001000)
T3CA4 000:434.552 - 0.006ms returns 0
T3CA4 000:434.557 JLINK_WriteReg(CFBP, 0x00000000)
T3CA4 000:434.561 - 0.006ms returns 0
T3CA4 000:434.567 JLINK_SetBPEx(Addr = 0x20000000, Type = 0xFFFFFFF2)
T3CA4 000:434.576 - 0.011ms returns 0x00000002
T3CA4 000:434.583 JLINK_Go()
T3CA4 000:434.663   CPU_ReadMem(4 bytes @ 0xE0001000)
T3CA4 000:438.421 - 3.853ms
T3CA4 000:438.442 JLINK_IsHalted()
T3CA4 000:441.928   CPU_ReadMem(2 bytes @ 0x20000000)
T3CA4 000:442.381 - 3.945ms returns TRUE
T3CA4 000:442.396 JLINK_ReadReg(R15 (PC))
T3CA4 000:442.405 - 0.010ms returns 0x20000000
T3CA4 000:442.411 JLINK_ClrBPEx(BPHandle = 0x00000002)
T3CA4 000:442.417 - 0.007ms returns 0x00
T3CA4 000:442.423 JLINK_ReadReg(R0)
T3CA4 000:442.428 - 0.007ms returns 0x00000001
T3CA4 000:442.434 JLINK_HasError()
T3CA4 000:442.441 JLINK_WriteReg(R0, 0x08000000)
T3CA4 000:442.446 - 0.007ms returns 0
T3CA4 000:442.452 JLINK_WriteReg(R1, 0x00000800)
T3CA4 000:442.457 - 0.006ms returns 0
T3CA4 000:442.463 JLINK_WriteReg(R2, 0x000000FF)
T3CA4 000:442.468 - 0.006ms returns 0
T3CA4 000:442.473 JLINK_WriteReg(R3, 0x00000000)
T3CA4 000:442.478 - 0.006ms returns 0
T3CA4 000:442.484 JLINK_WriteReg(R4, 0x00000000)
T3CA4 000:442.489 - 0.006ms returns 0
T3CA4 000:442.494 JLINK_WriteReg(R5, 0x00000000)
T3CA4 000:442.499 - 0.006ms returns 0
T3CA4 000:442.505 JLINK_WriteReg(R6, 0x00000000)
T3CA4 000:442.509 - 0.006ms returns 0
T3CA4 000:442.515 JLINK_WriteReg(R7, 0x00000000)
T3CA4 000:442.520 - 0.006ms returns 0
T3CA4 000:442.526 JLINK_WriteReg(R8, 0x00000000)
T3CA4 000:442.530 - 0.006ms returns 0
T3CA4 000:442.536 JLINK_WriteReg(R9, 0x20000134)
T3CA4 000:442.541 - 0.006ms returns 0
T3CA4 000:442.547 JLINK_WriteReg(R10, 0x00000000)
T3CA4 000:442.551 - 0.006ms returns 0
T3CA4 000:442.557 JLINK_WriteReg(R11, 0x00000000)
T3CA4 000:442.562 - 0.006ms returns 0
T3CA4 000:442.568 JLINK_WriteReg(R12, 0x00000000)
T3CA4 000:442.572 - 0.006ms returns 0
T3CA4 000:442.578 JLINK_WriteReg(R13 (SP), 0x20001000)
T3CA4 000:442.583 - 0.007ms returns 0
T3CA4 000:442.589 JLINK_WriteReg(R14, 0x20000001)
T3CA4 000:442.594 - 0.007ms returns 0
T3CA4 000:442.600 JLINK_WriteReg(R15 (PC), 0x200000A8)
T3CA4 000:442.604 - 0.006ms returns 0
T3CA4 000:442.610 JLINK_WriteReg(XPSR, 0x01000000)
T3CA4 000:442.615 - 0.006ms returns 0
T3CA4 000:442.621 JLINK_WriteReg(MSP, 0x20001000)
T3CA4 000:442.625 - 0.006ms returns 0
T3CA4 000:442.631 JLINK_WriteReg(PSP, 0x20001000)
T3CA4 000:442.636 - 0.006ms returns 0
T3CA4 000:442.642 JLINK_WriteReg(CFBP, 0x00000000)
T3CA4 000:442.646 - 0.006ms returns 0
T3CA4 000:442.652 JLINK_SetBPEx(Addr = 0x20000000, Type = 0xFFFFFFF2)
T3CA4 000:442.658 - 0.007ms returns 0x00000003
T3CA4 000:442.664 JLINK_Go()
T3CA4 000:442.674   CPU_ReadMem(4 bytes @ 0xE0001000)
T3CA4 000:446.245 - 3.596ms
T3CA4 000:446.269 JLINK_IsHalted()
T3CA4 000:446.591 - 0.326ms returns FALSE
T3CA4 000:446.602 JLINK_HasError()
T3CA4 000:462.397 JLINK_IsHalted()
T3CA4 000:462.911 - 0.523ms returns FALSE
T3CA4 000:462.925 JLINK_HasError()
T3CA4 000:464.269 JLINK_IsHalted()
T3CA4 000:464.682 - 0.424ms returns FALSE
T3CA4 000:464.700 JLINK_HasError()
T3CA4 000:466.519 JLINK_IsHalted()
T3CA4 000:467.058 - 0.598ms returns FALSE
T3CA4 000:467.127 JLINK_HasError()
T3CA4 000:468.250 JLINK_IsHalted()
T3CA4 000:471.774   CPU_ReadMem(2 bytes @ 0x20000000)
T3CA4 000:472.106 - 3.863ms returns TRUE
T3CA4 000:472.124 JLINK_ReadReg(R15 (PC))
T3CA4 000:472.135 - 0.014ms returns 0x20000000
T3CA4 000:472.143 JLINK_ClrBPEx(BPHandle = 0x00000003)
T3CA4 000:472.152 - 0.011ms returns 0x00
T3CA4 000:472.159 JLINK_ReadReg(R0)
T3CA4 000:472.165 - 0.008ms returns 0x00000000
T3CA4 000:473.271 JLINK_HasError()
T3CA4 000:473.293 JLINK_WriteReg(R0, 0x08000800)
T3CA4 000:473.302 - 0.011ms returns 0
T3CA4 000:473.308 JLINK_WriteReg(R1, 0x00000800)
T3CA4 000:473.313 - 0.007ms returns 0
T3CA4 000:473.318 JLINK_WriteReg(R2, 0x000000FF)
T3CA4 000:473.323 - 0.006ms returns 0
T3CA4 000:473.328 JLINK_WriteReg(R3, 0x00000000)
T3CA4 000:473.332 - 0.006ms returns 0
T3CA4 000:473.337 JLINK_WriteReg(R4, 0x00000000)
T3CA4 000:473.342 - 0.006ms returns 0
T3CA4 000:473.349 JLINK_WriteReg(R5, 0x00000000)
T3CA4 000:473.353 - 0.006ms returns 0
T3CA4 000:473.358 JLINK_WriteReg(R6, 0x00000000)
T3CA4 000:473.363 - 0.006ms returns 0
T3CA4 000:473.368 JLINK_WriteReg(R7, 0x00000000)
T3CA4 000:473.380 - 0.014ms returns 0
T3CA4 000:473.385 JLINK_WriteReg(R8, 0x00000000)
T3CA4 000:473.390 - 0.006ms returns 0
T3CA4 000:473.395 JLINK_WriteReg(R9, 0x20000134)
T3CA4 000:473.399 - 0.006ms returns 0
T3CA4 000:473.405 JLINK_WriteReg(R10, 0x00000000)
T3CA4 000:473.409 - 0.006ms returns 0
T3CA4 000:473.414 JLINK_WriteReg(R11, 0x00000000)
T3CA4 000:473.419 - 0.006ms returns 0
T3CA4 000:473.424 JLINK_WriteReg(R12, 0x00000000)
T3CA4 000:473.428 - 0.006ms returns 0
T3CA4 000:473.433 JLINK_WriteReg(R13 (SP), 0x20001000)
T3CA4 000:473.439 - 0.007ms returns 0
T3CA4 000:473.444 JLINK_WriteReg(R14, 0x20000001)
T3CA4 000:473.448 - 0.006ms returns 0
T3CA4 000:473.453 JLINK_WriteReg(R15 (PC), 0x20000020)
T3CA4 000:473.458 - 0.006ms returns 0
T3CA4 000:473.463 JLINK_WriteReg(XPSR, 0x01000000)
T3CA4 000:473.468 - 0.006ms returns 0
T3CA4 000:473.473 JLINK_WriteReg(MSP, 0x20001000)
T3CA4 000:473.477 - 0.006ms returns 0
T3CA4 000:473.482 JLINK_WriteReg(PSP, 0x20001000)
T3CA4 000:473.487 - 0.006ms returns 0
T3CA4 000:473.492 JLINK_WriteReg(CFBP, 0x00000000)
T3CA4 000:473.496 - 0.006ms returns 0
T3CA4 000:473.502 JLINK_SetBPEx(Addr = 0x20000000, Type = 0xFFFFFFF2)
T3CA4 000:473.508 - 0.008ms returns 0x00000004
T3CA4 000:473.513 JLINK_Go()
T3CA4 000:473.526   CPU_ReadMem(4 bytes @ 0xE0001000)
T3CA4 000:477.070 - 3.572ms
T3CA4 000:477.092 JLINK_IsHalted()
T3CA4 000:480.602   CPU_ReadMem(2 bytes @ 0x20000000)
T3CA4 000:481.022 - 3.935ms returns TRUE
T3CA4 000:481.033 JLINK_ReadReg(R15 (PC))
T3CA4 000:481.041 - 0.009ms returns 0x20000000
T3CA4 000:481.046 JLINK_ClrBPEx(BPHandle = 0x00000004)
T3CA4 000:481.052 - 0.007ms returns 0x00
T3CA4 000:481.057 JLINK_ReadReg(R0)
T3CA4 000:481.062 - 0.007ms returns 0x00000001
T3CA4 000:481.068 JLINK_HasError()
T3CA4 000:481.074 JLINK_WriteReg(R0, 0x08000800)
T3CA4 000:481.079 - 0.007ms returns 0
T3CA4 000:481.084 JLINK_WriteReg(R1, 0x00000800)
T3CA4 000:481.089 - 0.006ms returns 0
T3CA4 000:481.094 JLINK_WriteReg(R2, 0x000000FF)
T3CA4 000:481.098 - 0.006ms returns 0
T3CA4 000:481.104 JLINK_WriteReg(R3, 0x00000000)
T3CA4 000:481.108 - 0.006ms returns 0
T3CA4 000:481.113 JLINK_WriteReg(R4, 0x00000000)
T3CA4 000:481.118 - 0.006ms returns 0
T3CA4 000:481.123 JLINK_WriteReg(R5, 0x00000000)
T3CA4 000:481.127 - 0.006ms returns 0
T3CA4 000:481.132 JLINK_WriteReg(R6, 0x00000000)
T3CA4 000:481.137 - 0.006ms returns 0
T3CA4 000:481.142 JLINK_WriteReg(R7, 0x00000000)
T3CA4 000:481.146 - 0.006ms returns 0
T3CA4 000:481.151 JLINK_WriteReg(R8, 0x00000000)
T3CA4 000:481.156 - 0.006ms returns 0
T3CA4 000:481.161 JLINK_WriteReg(R9, 0x20000134)
T3CA4 000:481.165 - 0.006ms returns 0
T3CA4 000:481.170 JLINK_WriteReg(R10, 0x00000000)
T3CA4 000:481.175 - 0.006ms returns 0
T3CA4 000:481.180 JLINK_WriteReg(R11, 0x00000000)
T3CA4 000:481.184 - 0.006ms returns 0
T3CA4 000:481.189 JLINK_WriteReg(R12, 0x00000000)
T3CA4 000:481.194 - 0.006ms returns 0
T3CA4 000:481.199 JLINK_WriteReg(R13 (SP), 0x20001000)
T3CA4 000:481.204 - 0.007ms returns 0
T3CA4 000:481.209 JLINK_WriteReg(R14, 0x20000001)
T3CA4 000:481.214 - 0.007ms returns 0
T3CA4 000:481.219 JLINK_WriteReg(R15 (PC), 0x200000A8)
T3CA4 000:481.223 - 0.006ms returns 0
T3CA4 000:481.228 JLINK_WriteReg(XPSR, 0x01000000)
T3CA4 000:481.233 - 0.007ms returns 0
T3CA4 000:481.238 JLINK_WriteReg(MSP, 0x20001000)
T3CA4 000:481.243 - 0.007ms returns 0
T3CA4 000:481.248 JLINK_WriteReg(PSP, 0x20001000)
T3CA4 000:481.253 - 0.006ms returns 0
T3CA4 000:481.258 JLINK_WriteReg(CFBP, 0x00000000)
T3CA4 000:481.262 - 0.006ms returns 0
T3CA4 000:481.267 JLINK_SetBPEx(Addr = 0x20000000, Type = 0xFFFFFFF2)
T3CA4 000:481.273 - 0.007ms returns 0x00000005
T3CA4 000:481.278 JLINK_Go()
T3CA4 000:481.288   CPU_ReadMem(4 bytes @ 0xE0001000)
T3CA4 000:484.982 - 3.744ms
T3CA4 000:485.066 JLINK_IsHalted()
T3CA4 000:485.423 - 0.369ms returns FALSE
T3CA4 000:485.439 JLINK_HasError()
T3CA4 000:487.396 JLINK_IsHalted()
T3CA4 000:487.838 - 0.451ms returns FALSE
T3CA4 000:487.852 JLINK_HasError()
T3CA4 000:489.390 JLINK_IsHalted()
T3CA4 000:489.790 - 0.408ms returns FALSE
T3CA4 000:489.803 JLINK_HasError()
T3CA4 000:491.842 JLINK_IsHalted()
T3CA4 000:492.344 - 0.510ms returns FALSE
T3CA4 000:492.357 JLINK_HasError()
T3CA4 000:493.777 JLINK_IsHalted()
T3CA4 000:494.138 - 0.367ms returns FALSE
T3CA4 000:494.149 JLINK_HasError()
T3CA4 000:495.913 JLINK_IsHalted()
T3CA4 000:496.381 - 0.474ms returns FALSE
T3CA4 000:496.392 JLINK_HasError()
T3CA4 000:497.837 JLINK_IsHalted()
T3CA4 000:498.267 - 0.436ms returns FALSE
T3CA4 000:498.278 JLINK_HasError()
T3CA4 000:500.322 JLINK_IsHalted()
T3CA4 000:500.761 - 0.443ms returns FALSE
T3CA4 000:500.768 JLINK_HasError()
T3CA4 000:502.813 JLINK_IsHalted()
T3CA4 000:503.435 - 0.625ms returns FALSE
T3CA4 000:503.442 JLINK_HasError()
T3CA4 000:504.819 JLINK_IsHalted()
T3CA4 000:505.381 - 0.582ms returns FALSE
T3CA4 000:505.408 JLINK_HasError()
T3CA4 000:506.969 JLINK_IsHalted()
T3CA4 000:507.406 - 0.449ms returns FALSE
T3CA4 000:507.427 JLINK_HasError()
T3CA4 000:508.778 JLINK_IsHalted()
T3CA4 000:512.580   CPU_ReadMem(2 bytes @ 0x20000000)
T3CA4 000:512.959 - 4.189ms returns TRUE
T3CA4 000:512.973 JLINK_ReadReg(R15 (PC))
T3CA4 000:512.982 - 0.011ms returns 0x20000000
T3CA4 000:512.988 JLINK_ClrBPEx(BPHandle = 0x00000005)
T3CA4 000:512.993 - 0.007ms returns 0x00
T3CA4 000:512.998 JLINK_ReadReg(R0)
T3CA4 000:513.005 - 0.013ms returns 0x00000000
T3CA4 000:513.501 JLINK_HasError()
T3CA4 000:513.512 JLINK_WriteReg(R0, 0x08001000)
T3CA4 000:513.519 - 0.009ms returns 0
T3CA4 000:513.524 JLINK_WriteReg(R1, 0x00000800)
T3CA4 000:513.529 - 0.007ms returns 0
T3CA4 000:513.534 JLINK_WriteReg(R2, 0x000000FF)
T3CA4 000:513.539 - 0.006ms returns 0
T3CA4 000:513.544 JLINK_WriteReg(R3, 0x00000000)
T3CA4 000:513.548 - 0.006ms returns 0
T3CA4 000:513.553 JLINK_WriteReg(R4, 0x00000000)
T3CA4 000:513.558 - 0.006ms returns 0
T3CA4 000:513.563 JLINK_WriteReg(R5, 0x00000000)
T3CA4 000:513.567 - 0.006ms returns 0
T3CA4 000:513.572 JLINK_WriteReg(R6, 0x00000000)
T3CA4 000:513.577 - 0.006ms returns 0
T3CA4 000:513.582 JLINK_WriteReg(R7, 0x00000000)
T3CA4 000:513.587 - 0.006ms returns 0
T3CA4 000:513.592 JLINK_WriteReg(R8, 0x00000000)
T3CA4 000:513.596 - 0.006ms returns 0
T3CA4 000:513.601 JLINK_WriteReg(R9, 0x20000134)
T3CA4 000:513.606 - 0.006ms returns 0
T3CA4 000:513.611 JLINK_WriteReg(R10, 0x00000000)
T3CA4 000:513.615 - 0.006ms returns 0
T3CA4 000:513.620 JLINK_WriteReg(R11, 0x00000000)
T3CA4 000:513.625 - 0.006ms returns 0
T3CA4 000:513.630 JLINK_WriteReg(R12, 0x00000000)
T3CA4 000:513.635 - 0.006ms returns 0
T3CA4 000:513.640 JLINK_WriteReg(R13 (SP), 0x20001000)
T3CA4 000:513.645 - 0.007ms returns 0
T3CA4 000:513.650 JLINK_WriteReg(R14, 0x20000001)
T3CA4 000:513.654 - 0.006ms returns 0
T3CA4 000:513.659 JLINK_WriteReg(R15 (PC), 0x20000020)
T3CA4 000:513.664 - 0.006ms returns 0
T3CA4 000:513.669 JLINK_WriteReg(XPSR, 0x01000000)
T3CA4 000:513.674 - 0.006ms returns 0
T3CA4 000:513.679 JLINK_WriteReg(MSP, 0x20001000)
T3CA4 000:513.683 - 0.006ms returns 0
T3CA4 000:513.688 JLINK_WriteReg(PSP, 0x20001000)
T3CA4 000:513.693 - 0.006ms returns 0
T3CA4 000:513.698 JLINK_WriteReg(CFBP, 0x00000000)
T3CA4 000:513.703 - 0.006ms returns 0
T3CA4 000:513.708 JLINK_SetBPEx(Addr = 0x20000000, Type = 0xFFFFFFF2)
T3CA4 000:513.714 - 0.007ms returns 0x00000006
T3CA4 000:513.719 JLINK_Go()
T3CA4 000:513.731   CPU_ReadMem(4 bytes @ 0xE0001000)
T3CA4 000:517.728 - 4.016ms
T3CA4 000:517.741 JLINK_IsHalted()
T3CA4 000:521.379   CPU_ReadMem(2 bytes @ 0x20000000)
T3CA4 000:521.758 - 4.026ms returns TRUE
T3CA4 000:521.773 JLINK_ReadReg(R15 (PC))
T3CA4 000:521.781 - 0.010ms returns 0x20000000
T3CA4 000:521.787 JLINK_ClrBPEx(BPHandle = 0x00000006)
T3CA4 000:521.792 - 0.007ms returns 0x00
T3CA4 000:521.797 JLINK_ReadReg(R0)
T3CA4 000:521.802 - 0.007ms returns 0x00000001
T3CA4 000:521.808 JLINK_HasError()
T3CA4 000:521.814 JLINK_WriteReg(R0, 0x08001000)
T3CA4 000:521.819 - 0.007ms returns 0
T3CA4 000:521.825 JLINK_WriteReg(R1, 0x00000800)
T3CA4 000:521.834 - 0.013ms returns 0
T3CA4 000:521.841 JLINK_WriteReg(R2, 0x000000FF)
T3CA4 000:521.846 - 0.006ms returns 0
T3CA4 000:521.851 JLINK_WriteReg(R3, 0x00000000)
T3CA4 000:521.855 - 0.006ms returns 0
T3CA4 000:521.860 JLINK_WriteReg(R4, 0x00000000)
T3CA4 000:521.865 - 0.006ms returns 0
T3CA4 000:521.870 JLINK_WriteReg(R5, 0x00000000)
T3CA4 000:521.875 - 0.006ms returns 0
T3CA4 000:521.880 JLINK_WriteReg(R6, 0x00000000)
T3CA4 000:521.884 - 0.006ms returns 0
T3CA4 000:521.889 JLINK_WriteReg(R7, 0x00000000)
T3CA4 000:521.894 - 0.006ms returns 0
T3CA4 000:521.899 JLINK_WriteReg(R8, 0x00000000)
T3CA4 000:521.903 - 0.006ms returns 0
T3CA4 000:521.908 JLINK_WriteReg(R9, 0x20000134)
T3CA4 000:521.913 - 0.006ms returns 0
T3CA4 000:521.918 JLINK_WriteReg(R10, 0x00000000)
T3CA4 000:521.922 - 0.007ms returns 0
T3CA4 000:521.931 JLINK_WriteReg(R11, 0x00000000)
T3CA4 000:521.952 - 0.024ms returns 0
T3CA4 000:521.961 JLINK_WriteReg(R12, 0x00000000)
T3CA4 000:521.967 - 0.009ms returns 0
T3CA4 000:521.973 JLINK_WriteReg(R13 (SP), 0x20001000)
T3CA4 000:521.980 - 0.010ms returns 0
T3CA4 000:521.996 JLINK_WriteReg(R14, 0x20000001)
T3CA4 000:522.004 - 0.009ms returns 0
T3CA4 000:522.011 JLINK_WriteReg(R15 (PC), 0x200000A8)
T3CA4 000:522.017 - 0.009ms returns 0
T3CA4 000:522.025 JLINK_WriteReg(XPSR, 0x01000000)
T3CA4 000:522.031 - 0.009ms returns 0
T3CA4 000:522.039 JLINK_WriteReg(MSP, 0x20001000)
T3CA4 000:522.045 - 0.009ms returns 0
T3CA4 000:522.052 JLINK_WriteReg(PSP, 0x20001000)
T3CA4 000:522.059 - 0.009ms returns 0
T3CA4 000:522.066 JLINK_WriteReg(CFBP, 0x00000000)
T3CA4 000:522.073 - 0.009ms returns 0
T3CA4 000:522.081 JLINK_SetBPEx(Addr = 0x20000000, Type = 0xFFFFFFF2)
T3CA4 000:522.089 - 0.013ms returns 0x00000007
T3CA4 000:522.099 JLINK_Go()
T3CA4 000:522.114   CPU_ReadMem(4 bytes @ 0xE0001000)
T3CA4 000:526.056 - 3.968ms
T3CA4 000:526.076 JLINK_IsHalted()
T3CA4 000:526.610 - 0.541ms returns FALSE
T3CA4 000:526.623 JLINK_HasError()
T3CA4 000:528.482 JLINK_IsHalted()
T3CA4 000:529.068 - 0.592ms returns FALSE
T3CA4 000:529.080 JLINK_HasError()
T3CA4 000:530.449 JLINK_IsHalted()
T3CA4 000:530.891 - 0.449ms returns FALSE
T3CA4 000:530.904 JLINK_HasError()
T3CA4 000:532.301 JLINK_IsHalted()
T3CA4 000:532.872 - 0.577ms returns FALSE
T3CA4 000:532.883 JLINK_HasError()
T3CA4 000:534.089 JLINK_IsHalted()
T3CA4 000:534.476 - 0.393ms returns FALSE
T3CA4 000:534.487 JLINK_HasError()
T3CA4 000:535.603 JLINK_IsHalted()
T3CA4 000:535.971 - 0.374ms returns FALSE
T3CA4 000:535.983 JLINK_HasError()
T3CA4 000:537.386 JLINK_IsHalted()
T3CA4 000:537.757 - 0.382ms returns FALSE
T3CA4 000:537.775 JLINK_HasError()
T3CA4 000:540.596 JLINK_IsHalted()
T3CA4 000:541.169 - 0.587ms returns FALSE
T3CA4 000:541.193 JLINK_HasError()
T3CA4 000:542.677 JLINK_IsHalted()
T3CA4 000:543.361 - 0.701ms returns FALSE
T3CA4 000:543.387 JLINK_HasError()
T3CA4 000:544.520 JLINK_IsHalted()
T3CA4 000:545.192 - 0.689ms returns FALSE
T3CA4 000:545.217 JLINK_HasError()
T3CA4 000:546.507 JLINK_IsHalted()
T3CA4 000:546.922 - 0.427ms returns FALSE
T3CA4 000:546.943 JLINK_HasError()
T3CA4 000:548.501 JLINK_IsHalted()
T3CA4 000:552.363   CPU_ReadMem(2 bytes @ 0x20000000)
T3CA4 000:552.943 - 4.457ms returns TRUE
T3CA4 000:552.974 JLINK_ReadReg(R15 (PC))
T3CA4 000:552.990 - 0.023ms returns 0x20000000
T3CA4 000:553.005 JLINK_ClrBPEx(BPHandle = 0x00000007)
T3CA4 000:553.019 - 0.020ms returns 0x00
T3CA4 000:553.037 JLINK_ReadReg(R0)
T3CA4 000:553.053 - 0.023ms returns 0x00000000
T3CA4 000:554.230 JLINK_HasError()
T3CA4 000:554.254 JLINK_WriteReg(R0, 0x08001800)
T3CA4 000:554.264 - 0.012ms returns 0
T3CA4 000:554.270 JLINK_WriteReg(R1, 0x00000800)
T3CA4 000:554.275 - 0.007ms returns 0
T3CA4 000:554.280 JLINK_WriteReg(R2, 0x000000FF)
T3CA4 000:554.285 - 0.006ms returns 0
T3CA4 000:554.290 JLINK_WriteReg(R3, 0x00000000)
T3CA4 000:554.295 - 0.006ms returns 0
T3CA4 000:554.300 JLINK_WriteReg(R4, 0x00000000)
T3CA4 000:554.304 - 0.006ms returns 0
T3CA4 000:554.310 JLINK_WriteReg(R5, 0x00000000)
T3CA4 000:554.371 - 0.067ms returns 0
T3CA4 000:554.381 JLINK_WriteReg(R6, 0x00000000)
T3CA4 000:554.385 - 0.006ms returns 0
T3CA4 000:554.596 JLINK_WriteReg(R7, 0x00000000)
T3CA4 000:554.602 - 0.007ms returns 0
T3CA4 000:554.607 JLINK_WriteReg(R8, 0x00000000)
T3CA4 000:554.611 - 0.006ms returns 0
T3CA4 000:554.616 JLINK_WriteReg(R9, 0x20000134)
T3CA4 000:554.621 - 0.006ms returns 0
T3CA4 000:554.626 JLINK_WriteReg(R10, 0x00000000)
T3CA4 000:554.631 - 0.006ms returns 0
T3CA4 000:554.636 JLINK_WriteReg(R11, 0x00000000)
T3CA4 000:554.640 - 0.006ms returns 0
T3CA4 000:554.645 JLINK_WriteReg(R12, 0x00000000)
T3CA4 000:554.650 - 0.006ms returns 0
T3CA4 000:554.655 JLINK_WriteReg(R13 (SP), 0x20001000)
T3CA4 000:554.660 - 0.007ms returns 0
T3CA4 000:554.665 JLINK_WriteReg(R14, 0x20000001)
T3CA4 000:554.670 - 0.006ms returns 0
T3CA4 000:554.675 JLINK_WriteReg(R15 (PC), 0x20000020)
T3CA4 000:554.680 - 0.006ms returns 0
T3CA4 000:554.685 JLINK_WriteReg(XPSR, 0x01000000)
T3CA4 000:554.689 - 0.006ms returns 0
T3CA4 000:554.694 JLINK_WriteReg(MSP, 0x20001000)
T3CA4 000:554.699 - 0.006ms returns 0
T3CA4 000:554.704 JLINK_WriteReg(PSP, 0x20001000)
T3CA4 000:554.709 - 0.006ms returns 0
T3CA4 000:554.714 JLINK_WriteReg(CFBP, 0x00000000)
T3CA4 000:554.718 - 0.006ms returns 0
T3CA4 000:554.723 JLINK_SetBPEx(Addr = 0x20000000, Type = 0xFFFFFFF2)
T3CA4 000:554.730 - 0.008ms returns 0x00000008
T3CA4 000:554.735 JLINK_Go()
T3CA4 000:554.750   CPU_ReadMem(4 bytes @ 0xE0001000)
T3CA4 000:558.457 - 3.735ms
T3CA4 000:558.477 JLINK_IsHalted()
T3CA4 000:562.162   CPU_ReadMem(2 bytes @ 0x20000000)
T3CA4 000:562.540 - 4.069ms returns TRUE
T3CA4 000:562.553 JLINK_ReadReg(R15 (PC))
T3CA4 000:562.561 - 0.010ms returns 0x20000000
T3CA4 000:562.567 JLINK_ClrBPEx(BPHandle = 0x00000008)
T3CA4 000:562.572 - 0.007ms returns 0x00
T3CA4 000:562.578 JLINK_ReadReg(R0)
T3CA4 000:562.583 - 0.006ms returns 0x00000001
T3CA4 000:562.589 JLINK_HasError()
T3CA4 000:562.594 JLINK_WriteReg(R0, 0x08001800)
T3CA4 000:562.599 - 0.007ms returns 0
T3CA4 000:562.605 JLINK_WriteReg(R1, 0x00000800)
T3CA4 000:562.609 - 0.006ms returns 0
T3CA4 000:562.614 JLINK_WriteReg(R2, 0x000000FF)
T3CA4 000:562.619 - 0.006ms returns 0
T3CA4 000:562.624 JLINK_WriteReg(R3, 0x00000000)
T3CA4 000:562.629 - 0.006ms returns 0
T3CA4 000:562.634 JLINK_WriteReg(R4, 0x00000000)
T3CA4 000:562.638 - 0.006ms returns 0
T3CA4 000:562.643 JLINK_WriteReg(R5, 0x00000000)
T3CA4 000:562.648 - 0.006ms returns 0
T3CA4 000:562.653 JLINK_WriteReg(R6, 0x00000000)
T3CA4 000:562.657 - 0.006ms returns 0
T3CA4 000:562.662 JLINK_WriteReg(R7, 0x00000000)
T3CA4 000:562.667 - 0.006ms returns 0
T3CA4 000:562.672 JLINK_WriteReg(R8, 0x00000000)
T3CA4 000:562.677 - 0.007ms returns 0
T3CA4 000:562.682 JLINK_WriteReg(R9, 0x20000134)
T3CA4 000:562.687 - 0.006ms returns 0
T3CA4 000:562.692 JLINK_WriteReg(R10, 0x00000000)
T3CA4 000:562.696 - 0.006ms returns 0
T3CA4 000:562.701 JLINK_WriteReg(R11, 0x00000000)
T3CA4 000:562.706 - 0.006ms returns 0
T3CA4 000:562.711 JLINK_WriteReg(R12, 0x00000000)
T3CA4 000:562.715 - 0.006ms returns 0
T3CA4 000:562.720 JLINK_WriteReg(R13 (SP), 0x20001000)
T3CA4 000:562.726 - 0.007ms returns 0
T3CA4 000:562.731 JLINK_WriteReg(R14, 0x20000001)
T3CA4 000:562.735 - 0.006ms returns 0
T3CA4 000:562.740 JLINK_WriteReg(R15 (PC), 0x200000A8)
T3CA4 000:562.745 - 0.006ms returns 0
T3CA4 000:562.750 JLINK_WriteReg(XPSR, 0x01000000)
T3CA4 000:562.755 - 0.006ms returns 0
T3CA4 000:562.760 JLINK_WriteReg(MSP, 0x20001000)
T3CA4 000:562.764 - 0.006ms returns 0
T3CA4 000:562.769 JLINK_WriteReg(PSP, 0x20001000)
T3CA4 000:562.774 - 0.006ms returns 0
T3CA4 000:562.779 JLINK_WriteReg(CFBP, 0x00000000)
T3CA4 000:562.783 - 0.006ms returns 0
T3CA4 000:562.789 JLINK_SetBPEx(Addr = 0x20000000, Type = 0xFFFFFFF2)
T3CA4 000:562.794 - 0.007ms returns 0x00000009
T3CA4 000:562.799 JLINK_Go()
T3CA4 000:562.810   CPU_ReadMem(4 bytes @ 0xE0001000)
T3CA4 000:566.697 - 3.905ms
T3CA4 000:566.710 JLINK_IsHalted()
T3CA4 000:567.258 - 0.563ms returns FALSE
T3CA4 000:567.281 JLINK_HasError()
T3CA4 000:573.387 JLINK_IsHalted()
T3CA4 000:573.956 - 0.577ms returns FALSE
T3CA4 000:573.970 JLINK_HasError()
T3CA4 000:575.528 JLINK_IsHalted()
T3CA4 000:576.082 - 0.560ms returns FALSE
T3CA4 000:576.093 JLINK_HasError()
T3CA4 000:577.349 JLINK_IsHalted()
T3CA4 000:577.884 - 0.540ms returns FALSE
T3CA4 000:577.895 JLINK_HasError()
T3CA4 000:579.469 JLINK_IsHalted()
T3CA4 000:579.784 - 0.324ms returns FALSE
T3CA4 000:579.802 JLINK_HasError()
T3CA4 000:581.535 JLINK_IsHalted()
T3CA4 000:582.077 - 0.547ms returns FALSE
T3CA4 000:582.088 JLINK_HasError()
T3CA4 000:583.292 JLINK_IsHalted()
T3CA4 000:583.848 - 0.562ms returns FALSE
T3CA4 000:583.859 JLINK_HasError()
T3CA4 000:585.075 JLINK_IsHalted()
T3CA4 000:585.447 - 0.377ms returns FALSE
T3CA4 000:585.458 JLINK_HasError()
T3CA4 000:587.110 JLINK_IsHalted()
T3CA4 000:587.542 - 0.439ms returns FALSE
T3CA4 000:587.555 JLINK_HasError()
T3CA4 000:589.605 JLINK_IsHalted()
T3CA4 000:593.772   CPU_ReadMem(2 bytes @ 0x20000000)
T3CA4 000:594.219 - 4.631ms returns TRUE
T3CA4 000:594.247 JLINK_ReadReg(R15 (PC))
T3CA4 000:594.258 - 0.015ms returns 0x20000000
T3CA4 000:594.280 JLINK_ClrBPEx(BPHandle = 0x00000009)
T3CA4 000:594.289 - 0.013ms returns 0x00
T3CA4 000:594.298 JLINK_ReadReg(R0)
T3CA4 000:594.307 - 0.011ms returns 0x00000000
T3CA4 000:594.791 JLINK_HasError()
T3CA4 000:594.812 JLINK_WriteReg(R0, 0x08002000)
T3CA4 000:594.821 - 0.011ms returns 0
T3CA4 000:594.826 JLINK_WriteReg(R1, 0x00000800)
T3CA4 000:594.831 - 0.007ms returns 0
T3CA4 000:594.836 JLINK_WriteReg(R2, 0x000000FF)
T3CA4 000:594.841 - 0.006ms returns 0
T3CA4 000:594.846 JLINK_WriteReg(R3, 0x00000000)
T3CA4 000:594.851 - 0.006ms returns 0
T3CA4 000:594.856 JLINK_WriteReg(R4, 0x00000000)
T3CA4 000:594.860 - 0.006ms returns 0
T3CA4 000:594.865 JLINK_WriteReg(R5, 0x00000000)
T3CA4 000:594.870 - 0.006ms returns 0
T3CA4 000:594.875 JLINK_WriteReg(R6, 0x00000000)
T3CA4 000:594.879 - 0.006ms returns 0
T3CA4 000:594.884 JLINK_WriteReg(R7, 0x00000000)
T3CA4 000:594.889 - 0.006ms returns 0
T3CA4 000:594.894 JLINK_WriteReg(R8, 0x00000000)
T3CA4 000:594.899 - 0.006ms returns 0
T3CA4 000:594.903 JLINK_WriteReg(R9, 0x20000134)
T3CA4 000:594.908 - 0.006ms returns 0
T3CA4 000:594.913 JLINK_WriteReg(R10, 0x00000000)
T3CA4 000:594.918 - 0.006ms returns 0
T3CA4 000:594.923 JLINK_WriteReg(R11, 0x00000000)
T3CA4 000:594.927 - 0.006ms returns 0
T3CA4 000:594.932 JLINK_WriteReg(R12, 0x00000000)
T3CA4 000:594.937 - 0.006ms returns 0
T3CA4 000:594.942 JLINK_WriteReg(R13 (SP), 0x20001000)
T3CA4 000:594.947 - 0.007ms returns 0
T3CA4 000:594.952 JLINK_WriteReg(R14, 0x20000001)
T3CA4 000:594.957 - 0.006ms returns 0
T3CA4 000:594.962 JLINK_WriteReg(R15 (PC), 0x20000020)
T3CA4 000:594.967 - 0.006ms returns 0
T3CA4 000:594.971 JLINK_WriteReg(XPSR, 0x01000000)
T3CA4 000:594.976 - 0.007ms returns 0
T3CA4 000:594.981 JLINK_WriteReg(MSP, 0x20001000)
T3CA4 000:594.986 - 0.006ms returns 0
T3CA4 000:594.991 JLINK_WriteReg(PSP, 0x20001000)
T3CA4 000:594.996 - 0.006ms returns 0
T3CA4 000:595.000 JLINK_WriteReg(CFBP, 0x00000000)
T3CA4 000:595.005 - 0.006ms returns 0
T3CA4 000:595.012 JLINK_SetBPEx(Addr = 0x20000000, Type = 0xFFFFFFF2)
T3CA4 000:595.020 - 0.010ms returns 0x0000000A
T3CA4 000:595.026 JLINK_Go()
T3CA4 000:595.040   CPU_ReadMem(4 bytes @ 0xE0001000)
T3CA4 000:599.347 - 4.344ms
T3CA4 000:599.381 JLINK_IsHalted()
T3CA4 000:603.181   CPU_ReadMem(2 bytes @ 0x20000000)
T3CA4 000:603.849 - 4.472ms returns TRUE
T3CA4 000:603.859 JLINK_ReadReg(R15 (PC))
T3CA4 000:603.867 - 0.009ms returns 0x20000000
T3CA4 000:603.872 JLINK_ClrBPEx(BPHandle = 0x0000000A)
T3CA4 000:603.878 - 0.007ms returns 0x00
T3CA4 000:603.883 JLINK_ReadReg(R0)
T3CA4 000:603.888 - 0.007ms returns 0x00000001
T3CA4 000:603.894 JLINK_HasError()
T3CA4 000:603.899 JLINK_WriteReg(R0, 0x08002000)
T3CA4 000:603.905 - 0.007ms returns 0
T3CA4 000:603.910 JLINK_WriteReg(R1, 0x00000800)
T3CA4 000:603.914 - 0.006ms returns 0
T3CA4 000:603.919 JLINK_WriteReg(R2, 0x000000FF)
T3CA4 000:603.930 - 0.013ms returns 0
T3CA4 000:603.936 JLINK_WriteReg(R3, 0x00000000)
T3CA4 000:603.940 - 0.006ms returns 0
T3CA4 000:603.945 JLINK_WriteReg(R4, 0x00000000)
T3CA4 000:603.950 - 0.006ms returns 0
T3CA4 000:603.955 JLINK_WriteReg(R5, 0x00000000)
T3CA4 000:603.959 - 0.006ms returns 0
T3CA4 000:603.964 JLINK_WriteReg(R6, 0x00000000)
T3CA4 000:603.969 - 0.006ms returns 0
T3CA4 000:603.974 JLINK_WriteReg(R7, 0x00000000)
T3CA4 000:603.978 - 0.006ms returns 0
T3CA4 000:603.983 JLINK_WriteReg(R8, 0x00000000)
T3CA4 000:603.988 - 0.006ms returns 0
T3CA4 000:603.993 JLINK_WriteReg(R9, 0x20000134)
T3CA4 000:603.997 - 0.006ms returns 0
T3CA4 000:604.002 JLINK_WriteReg(R10, 0x00000000)
T3CA4 000:604.007 - 0.006ms returns 0
T3CA4 000:604.012 JLINK_WriteReg(R11, 0x00000000)
T3CA4 000:604.017 - 0.006ms returns 0
T3CA4 000:604.022 JLINK_WriteReg(R12, 0x00000000)
T3CA4 000:604.026 - 0.006ms returns 0
T3CA4 000:604.031 JLINK_WriteReg(R13 (SP), 0x20001000)
T3CA4 000:604.036 - 0.007ms returns 0
T3CA4 000:604.041 JLINK_WriteReg(R14, 0x20000001)
T3CA4 000:604.046 - 0.006ms returns 0
T3CA4 000:604.051 JLINK_WriteReg(R15 (PC), 0x200000A8)
T3CA4 000:604.055 - 0.006ms returns 0
T3CA4 000:604.060 JLINK_WriteReg(XPSR, 0x01000000)
T3CA4 000:604.065 - 0.006ms returns 0
T3CA4 000:604.070 JLINK_WriteReg(MSP, 0x20001000)
T3CA4 000:604.074 - 0.006ms returns 0
T3CA4 000:604.079 JLINK_WriteReg(PSP, 0x20001000)
T3CA4 000:604.084 - 0.006ms returns 0
T3CA4 000:604.089 JLINK_WriteReg(CFBP, 0x00000000)
T3CA4 000:604.093 - 0.006ms returns 0
T3CA4 000:604.099 JLINK_SetBPEx(Addr = 0x20000000, Type = 0xFFFFFFF2)
T3CA4 000:604.104 - 0.007ms returns 0x0000000B
T3CA4 000:604.110 JLINK_Go()
T3CA4 000:604.119   CPU_ReadMem(4 bytes @ 0xE0001000)
T3CA4 000:607.916 - 3.820ms
T3CA4 000:607.939 JLINK_IsHalted()
T3CA4 000:608.559 - 0.625ms returns FALSE
T3CA4 000:608.571 JLINK_HasError()
T3CA4 000:610.781 JLINK_IsHalted()
T3CA4 000:611.395 - 0.619ms returns FALSE
T3CA4 000:611.405 JLINK_HasError()
T3CA4 000:613.535 JLINK_IsHalted()
T3CA4 000:614.107 - 0.577ms returns FALSE
T3CA4 000:614.118 JLINK_HasError()
T3CA4 000:615.508 JLINK_IsHalted()
T3CA4 000:615.883 - 0.384ms returns FALSE
T3CA4 000:615.898 JLINK_HasError()
T3CA4 000:617.315 JLINK_IsHalted()
T3CA4 000:617.706 - 0.398ms returns FALSE
T3CA4 000:617.719 JLINK_HasError()
T3CA4 000:619.524 JLINK_IsHalted()
T3CA4 000:620.193 - 0.686ms returns FALSE
T3CA4 000:620.219 JLINK_HasError()
T3CA4 000:621.510 JLINK_IsHalted()
T3CA4 000:621.992 - 0.508ms returns FALSE
T3CA4 000:622.031 JLINK_HasError()
T3CA4 000:623.565 JLINK_IsHalted()
T3CA4 000:624.273 - 0.725ms returns FALSE
T3CA4 000:624.299 JLINK_HasError()
T3CA4 000:625.568 JLINK_IsHalted()
T3CA4 000:626.247 - 0.701ms returns FALSE
T3CA4 000:626.279 JLINK_HasError()
T3CA4 000:627.439 JLINK_IsHalted()
T3CA4 000:627.944 - 0.520ms returns FALSE
T3CA4 000:627.969 JLINK_HasError()
T3CA4 000:629.523 JLINK_IsHalted()
T3CA4 000:630.013 - 0.506ms returns FALSE
T3CA4 000:630.038 JLINK_HasError()
T3CA4 000:631.254 JLINK_IsHalted()
T3CA4 000:634.884   CPU_ReadMem(2 bytes @ 0x20000000)
T3CA4 000:635.453 - 4.203ms returns TRUE
T3CA4 000:635.464 JLINK_ReadReg(R15 (PC))
T3CA4 000:635.472 - 0.009ms returns 0x20000000
T3CA4 000:635.478 JLINK_ClrBPEx(BPHandle = 0x0000000B)
T3CA4 000:635.483 - 0.007ms returns 0x00
T3CA4 000:635.489 JLINK_ReadReg(R0)
T3CA4 000:635.494 - 0.007ms returns 0x00000000
T3CA4 000:635.894 JLINK_HasError()
T3CA4 000:635.905 JLINK_WriteReg(R0, 0x08002800)
T3CA4 000:635.912 - 0.009ms returns 0
T3CA4 000:635.917 JLINK_WriteReg(R1, 0x00000800)
T3CA4 000:635.922 - 0.006ms returns 0
T3CA4 000:635.927 JLINK_WriteReg(R2, 0x000000FF)
T3CA4 000:635.931 - 0.006ms returns 0
T3CA4 000:635.937 JLINK_WriteReg(R3, 0x00000000)
T3CA4 000:635.941 - 0.006ms returns 0
T3CA4 000:635.946 JLINK_WriteReg(R4, 0x00000000)
T3CA4 000:635.951 - 0.006ms returns 0
T3CA4 000:635.956 JLINK_WriteReg(R5, 0x00000000)
T3CA4 000:635.960 - 0.006ms returns 0
T3CA4 000:635.965 JLINK_WriteReg(R6, 0x00000000)
T3CA4 000:635.976 - 0.013ms returns 0
T3CA4 000:635.981 JLINK_WriteReg(R7, 0x00000000)
T3CA4 000:635.986 - 0.006ms returns 0
T3CA4 000:635.991 JLINK_WriteReg(R8, 0x00000000)
T3CA4 000:635.995 - 0.006ms returns 0
T3CA4 000:636.000 JLINK_WriteReg(R9, 0x20000134)
T3CA4 000:636.005 - 0.006ms returns 0
T3CA4 000:636.010 JLINK_WriteReg(R10, 0x00000000)
T3CA4 000:636.014 - 0.006ms returns 0
T3CA4 000:636.019 JLINK_WriteReg(R11, 0x00000000)
T3CA4 000:636.024 - 0.006ms returns 0
T3CA4 000:636.029 JLINK_WriteReg(R12, 0x00000000)
T3CA4 000:636.034 - 0.006ms returns 0
T3CA4 000:636.039 JLINK_WriteReg(R13 (SP), 0x20001000)
T3CA4 000:636.044 - 0.007ms returns 0
T3CA4 000:636.049 JLINK_WriteReg(R14, 0x20000001)
T3CA4 000:636.053 - 0.006ms returns 0
T3CA4 000:636.058 JLINK_WriteReg(R15 (PC), 0x20000020)
T3CA4 000:636.063 - 0.006ms returns 0
T3CA4 000:636.068 JLINK_WriteReg(XPSR, 0x01000000)
T3CA4 000:636.073 - 0.006ms returns 0
T3CA4 000:636.078 JLINK_WriteReg(MSP, 0x20001000)
T3CA4 000:636.082 - 0.006ms returns 0
T3CA4 000:636.087 JLINK_WriteReg(PSP, 0x20001000)
T3CA4 000:636.092 - 0.006ms returns 0
T3CA4 000:636.097 JLINK_WriteReg(CFBP, 0x00000000)
T3CA4 000:636.101 - 0.006ms returns 0
T3CA4 000:636.107 JLINK_SetBPEx(Addr = 0x20000000, Type = 0xFFFFFFF2)
T3CA4 000:636.115 - 0.011ms returns 0x0000000C
T3CA4 000:636.121 JLINK_Go()
T3CA4 000:636.152   CPU_ReadMem(4 bytes @ 0xE0001000)
T3CA4 000:640.099 - 3.994ms
T3CA4 000:640.124 JLINK_IsHalted()
T3CA4 000:644.112   CPU_ReadMem(2 bytes @ 0x20000000)
T3CA4 000:644.556 - 4.444ms returns TRUE
T3CA4 000:644.576 JLINK_ReadReg(R15 (PC))
T3CA4 000:644.586 - 0.012ms returns 0x20000000
T3CA4 000:644.593 JLINK_ClrBPEx(BPHandle = 0x0000000C)
T3CA4 000:644.599 - 0.008ms returns 0x00
T3CA4 000:644.604 JLINK_ReadReg(R0)
T3CA4 000:644.610 - 0.007ms returns 0x00000001
T3CA4 000:644.618 JLINK_HasError()
T3CA4 000:644.633 JLINK_WriteReg(R0, 0x08002800)
T3CA4 000:644.640 - 0.009ms returns 0
T3CA4 000:644.647 JLINK_WriteReg(R1, 0x00000800)
T3CA4 000:644.651 - 0.006ms returns 0
T3CA4 000:644.657 JLINK_WriteReg(R2, 0x000000FF)
T3CA4 000:644.661 - 0.006ms returns 0
T3CA4 000:644.666 JLINK_WriteReg(R3, 0x00000000)
T3CA4 000:644.671 - 0.006ms returns 0
T3CA4 000:644.676 JLINK_WriteReg(R4, 0x00000000)
T3CA4 000:644.680 - 0.006ms returns 0
T3CA4 000:644.685 JLINK_WriteReg(R5, 0x00000000)
T3CA4 000:644.690 - 0.006ms returns 0
T3CA4 000:644.695 JLINK_WriteReg(R6, 0x00000000)
T3CA4 000:644.700 - 0.006ms returns 0
T3CA4 000:644.705 JLINK_WriteReg(R7, 0x00000000)
T3CA4 000:644.709 - 0.006ms returns 0
T3CA4 000:644.714 JLINK_WriteReg(R8, 0x00000000)
T3CA4 000:644.719 - 0.006ms returns 0
T3CA4 000:644.724 JLINK_WriteReg(R9, 0x20000134)
T3CA4 000:644.728 - 0.006ms returns 0
T3CA4 000:644.734 JLINK_WriteReg(R10, 0x00000000)
T3CA4 000:644.738 - 0.006ms returns 0
T3CA4 000:644.743 JLINK_WriteReg(R11, 0x00000000)
T3CA4 000:644.748 - 0.006ms returns 0
T3CA4 000:644.753 JLINK_WriteReg(R12, 0x00000000)
T3CA4 000:644.757 - 0.006ms returns 0
T3CA4 000:644.762 JLINK_WriteReg(R13 (SP), 0x20001000)
T3CA4 000:644.767 - 0.007ms returns 0
T3CA4 000:644.772 JLINK_WriteReg(R14, 0x20000001)
T3CA4 000:644.777 - 0.007ms returns 0
T3CA4 000:644.782 JLINK_WriteReg(R15 (PC), 0x200000A8)
T3CA4 000:644.787 - 0.006ms returns 0
T3CA4 000:644.792 JLINK_WriteReg(XPSR, 0x01000000)
T3CA4 000:644.797 - 0.007ms returns 0
T3CA4 000:644.802 JLINK_WriteReg(MSP, 0x20001000)
T3CA4 000:644.807 - 0.006ms returns 0
T3CA4 000:644.812 JLINK_WriteReg(PSP, 0x20001000)
T3CA4 000:644.816 - 0.006ms returns 0
T3CA4 000:644.821 JLINK_WriteReg(CFBP, 0x00000000)
T3CA4 000:644.826 - 0.006ms returns 0
T3CA4 000:644.831 JLINK_SetBPEx(Addr = 0x20000000, Type = 0xFFFFFFF2)
T3CA4 000:644.837 - 0.008ms returns 0x0000000D
T3CA4 000:644.843 JLINK_Go()
T3CA4 000:644.855   CPU_ReadMem(4 bytes @ 0xE0001000)
T3CA4 000:649.028 - 4.199ms
T3CA4 000:649.048 JLINK_IsHalted()
T3CA4 000:649.597 - 0.552ms returns FALSE
T3CA4 000:649.607 JLINK_HasError()
T3CA4 000:650.816 JLINK_IsHalted()
T3CA4 000:651.397 - 0.585ms returns FALSE
T3CA4 000:651.405 JLINK_HasError()
T3CA4 000:652.593 JLINK_IsHalted()
T3CA4 000:653.134 - 0.545ms returns FALSE
T3CA4 000:653.142 JLINK_HasError()
T3CA4 000:654.347 JLINK_IsHalted()
T3CA4 000:654.924 - 0.583ms returns FALSE
T3CA4 000:654.937 JLINK_HasError()
T3CA4 000:656.168 JLINK_IsHalted()
T3CA4 000:656.639 - 0.477ms returns FALSE
T3CA4 000:656.649 JLINK_HasError()
T3CA4 000:658.331 JLINK_IsHalted()
T3CA4 000:658.876 - 0.548ms returns FALSE
T3CA4 000:658.884 JLINK_HasError()
T3CA4 000:660.023 JLINK_IsHalted()
T3CA4 000:660.551 - 0.531ms returns FALSE
T3CA4 000:660.561 JLINK_HasError()
T3CA4 000:662.022 JLINK_IsHalted()
T3CA4 000:662.369 - 0.355ms returns FALSE
T3CA4 000:662.383 JLINK_HasError()
T3CA4 000:665.209 JLINK_IsHalted()
T3CA4 000:665.795 - 0.589ms returns FALSE
T3CA4 000:665.804 JLINK_HasError()
T3CA4 000:667.192 JLINK_IsHalted()
T3CA4 000:667.620 - 0.433ms returns FALSE
T3CA4 000:667.629 JLINK_HasError()
T3CA4 000:669.224 JLINK_IsHalted()
T3CA4 000:669.798 - 0.577ms returns FALSE
T3CA4 000:669.806 JLINK_HasError()
T3CA4 000:671.020 JLINK_IsHalted()
T3CA4 000:671.608 - 0.595ms returns FALSE
T3CA4 000:671.621 JLINK_HasError()
T3CA4 000:672.825 JLINK_IsHalted()
T3CA4 000:676.626   CPU_ReadMem(2 bytes @ 0x20000000)
T3CA4 000:677.005 - 4.194ms returns TRUE
T3CA4 000:677.026 JLINK_ReadReg(R15 (PC))
T3CA4 000:677.036 - 0.014ms returns 0x20000000
T3CA4 000:677.044 JLINK_ClrBPEx(BPHandle = 0x0000000D)
T3CA4 000:677.051 - 0.010ms returns 0x00
T3CA4 000:677.058 JLINK_ReadReg(R0)
T3CA4 000:677.065 - 0.009ms returns 0x00000000
T3CA4 000:677.614 JLINK_HasError()
T3CA4 000:677.637 JLINK_WriteReg(R0, 0x08003000)
T3CA4 000:677.646 - 0.012ms returns 0
T3CA4 000:677.652 JLINK_WriteReg(R1, 0x00000800)
T3CA4 000:677.657 - 0.007ms returns 0
T3CA4 000:677.662 JLINK_WriteReg(R2, 0x000000FF)
T3CA4 000:677.667 - 0.006ms returns 0
